#! /usr/local/bin/vvp
:ivl_version "14.0 (devel)" "(s20251012-147-gca756322a)";
:ivl_delay_selection "TYPICAL";
:vpi_time_precision - 12;
:vpi_module "/usr/local/lib/ivl/system.vpi";
:vpi_module "/usr/local/lib/ivl/vhdl_sys.vpi";
:vpi_module "/usr/local/lib/ivl/vhdl_textio.vpi";
:vpi_module "/usr/local/lib/ivl/v2005_math.vpi";
:vpi_module "/usr/local/lib/ivl/va_math.vpi";
:vpi_module "/usr/local/lib/ivl/v2009.vpi";
S_0x6166cf758d70 .scope package, "$unit" "$unit" 2 1;
 .timescale 0 0;
S_0x6166cf6c1f20 .scope module, "tb_axi4" "tb_axi4" 3 2;
 .timescale -9 -12;
P_0x6166cf6c2cb0 .param/l "AW" 0 3 3, +C4<00000000000000000000000000100000>;
P_0x6166cf6c2cf0 .param/l "DW" 0 3 3, +C4<00000000000000000000000000100000>;
P_0x6166cf6c2d30 .param/l "IW" 0 3 3, +C4<00000000000000000000000000000100>;
v0x6166cf77d2b0_0 .var "addr_in", 31 0;
v0x6166cf77d390_0 .net "araddr", 31 0, v0x6166cf778780_0;  1 drivers
v0x6166cf77d480_0 .net "arid", 3 0, v0x6166cf778860_0;  1 drivers
v0x6166cf77d570_0 .net "arlen", 7 0, v0x6166cf778950_0;  1 drivers
v0x6166cf77d680_0 .net "arready", 0 0, v0x6166cf77b0d0_0;  1 drivers
v0x6166cf77d770_0 .net "arvalid", 0 0, v0x6166cf778b20_0;  1 drivers
v0x6166cf77d810_0 .net "awaddr", 31 0, v0x6166cf778bf0_0;  1 drivers
v0x6166cf77d920_0 .net "awid", 3 0, v0x6166cf778c90_0;  1 drivers
v0x6166cf77da30_0 .net "awlen", 7 0, v0x6166cf778d70_0;  1 drivers
v0x6166cf77daf0_0 .net "awready", 0 0, v0x6166cf77b4e0_0;  1 drivers
v0x6166cf77db90_0 .net "awvalid", 0 0, v0x6166cf778f20_0;  1 drivers
v0x6166cf77dc30_0 .net "bid", 3 0, v0x6166cf77b670_0;  1 drivers
v0x6166cf77dd40_0 .net "bready", 0 0, v0x6166cf779090_0;  1 drivers
v0x6166cf77dde0_0 .net "bresp", 1 0, v0x6166cf77b800_0;  1 drivers
v0x6166cf77def0_0 .net "bvalid", 0 0, v0x6166cf77b940_0;  1 drivers
v0x6166cf77df90_0 .var "clk", 0 0;
v0x6166cf77e030_0 .var "data_in", 31 0;
v0x6166cf77e0f0_0 .net "data_out", 31 0, v0x6166cf779460_0;  1 drivers
v0x6166cf77e190_0 .net "done", 0 0, v0x6166cf779540_0;  1 drivers
v0x6166cf77e230_0 .net "rdata", 31 0, v0x6166cf77be80_0;  1 drivers
v0x6166cf77e320_0 .net "rid", 3 0, v0x6166cf77bf40_0;  1 drivers
v0x6166cf77e410_0 .net "rlast", 0 0, v0x6166cf77bfe0_0;  1 drivers
v0x6166cf77e4b0_0 .net "rready", 0 0, v0x6166cf779890_0;  1 drivers
v0x6166cf77e550_0 .net "rresp", 1 0, v0x6166cf77c1c0_0;  1 drivers
v0x6166cf77e660_0 .var "rst_n", 0 0;
v0x6166cf77e700_0 .net "rvalid", 0 0, v0x6166cf77c350_0;  1 drivers
v0x6166cf77e7a0_0 .var "start_read", 0 0;
v0x6166cf77e840_0 .var "start_write", 0 0;
v0x6166cf77e8e0_0 .net "wdata", 31 0, v0x6166cf779dc0_0;  1 drivers
v0x6166cf77e9d0_0 .net "wlast", 0 0, v0x6166cf779ea0_0;  1 drivers
v0x6166cf77ea70_0 .net "wready", 0 0, v0x6166cf77c770_0;  1 drivers
v0x6166cf77eb10_0 .net "wvalid", 0 0, v0x6166cf77a040_0;  1 drivers
S_0x6166cf70a260 .scope task, "read_txn" "read_txn" 3 69, 3 69 0, S_0x6166cf6c1f20;
 .timescale -9 -12;
v0x6166cf74bb60_0 .var "addr", 31 0;
E_0x6166cf71dda0 .event posedge, v0x6166cf777970_0;
E_0x6166cf71db50 .event anyedge, v0x6166cf779540_0;
TD_tb_axi4.read_txn ;
    %wait E_0x6166cf71dda0;
    %load/vec4 v0x6166cf74bb60_0;
    %store/vec4 v0x6166cf77d2b0_0, 0, 32;
    %pushi/vec4 1, 0, 1;
    %store/vec4 v0x6166cf77e7a0_0, 0, 1;
    %wait E_0x6166cf71dda0;
    %pushi/vec4 0, 0, 1;
    %store/vec4 v0x6166cf77e7a0_0, 0, 1;
T_0.0 ;
    %load/vec4 v0x6166cf77e190_0;
    %cmpi/ne 1, 0, 1;
    %jmp/0xz T_0.1, 6;
    %wait E_0x6166cf71db50;
    %jmp T_0.0;
T_0.1 ;
    %wait E_0x6166cf71dda0;
    %vpi_call/w 3 75 "$display", "[READ]  addr=0x%08h data=0x%08h -- OK", v0x6166cf74bb60_0, v0x6166cf77e0f0_0 {0 0 0};
    %end;
S_0x6166cf776ff0 .scope module, "u_assert" "axi4_assertions" 3 108, 4 1 0, S_0x6166cf6c1f20;
 .timescale 0 0;
    .port_info 0 /INPUT 1 "clk";
    .port_info 1 /INPUT 1 "resetn";
    .port_info 2 /INPUT 1 "awvalid";
    .port_info 3 /INPUT 1 "awready";
    .port_info 4 /INPUT 1 "wvalid";
    .port_info 5 /INPUT 1 "wready";
    .port_info 6 /INPUT 1 "wlast";
    .port_info 7 /INPUT 1 "bvalid";
    .port_info 8 /INPUT 1 "bready";
    .port_info 9 /INPUT 1 "arvalid";
    .port_info 10 /INPUT 1 "arready";
    .port_info 11 /INPUT 1 "rvalid";
    .port_info 12 /INPUT 1 "rready";
    .port_info 13 /INPUT 1 "rlast";
P_0x6166cf758320 .param/l "ADDR_WIDTH" 0 4 3, +C4<00000000000000000000000000100000>;
P_0x6166cf758360 .param/l "DATA_WIDTH" 0 4 2, +C4<00000000000000000000000000100000>;
v0x6166cf7524c0_0 .net "arready", 0 0, v0x6166cf77b0d0_0;  alias, 1 drivers
v0x6166cf7527b0_0 .net "arvalid", 0 0, v0x6166cf778b20_0;  alias, 1 drivers
v0x6166cf752ac0_0 .var "arvalid_prev", 0 0;
v0x6166cf752df0_0 .var "aw_done", 0 0;
v0x6166cf745950_0 .net "awready", 0 0, v0x6166cf77b4e0_0;  alias, 1 drivers
v0x6166cf745d60_0 .net "awvalid", 0 0, v0x6166cf778f20_0;  alias, 1 drivers
v0x6166cf777650_0 .var "awvalid_prev", 0 0;
v0x6166cf777710_0 .var/i "b_wait", 31 0;
v0x6166cf7777f0_0 .net "bready", 0 0, v0x6166cf779090_0;  alias, 1 drivers
v0x6166cf7778b0_0 .net "bvalid", 0 0, v0x6166cf77b940_0;  alias, 1 drivers
v0x6166cf777970_0 .net "clk", 0 0, v0x6166cf77df90_0;  1 drivers
v0x6166cf777a30_0 .net "resetn", 0 0, v0x6166cf77e660_0;  1 drivers
v0x6166cf777af0_0 .net "rlast", 0 0, v0x6166cf77bfe0_0;  alias, 1 drivers
v0x6166cf777bb0_0 .net "rready", 0 0, v0x6166cf779890_0;  alias, 1 drivers
v0x6166cf777c70_0 .net "rvalid", 0 0, v0x6166cf77c350_0;  alias, 1 drivers
v0x6166cf777d30_0 .var "rvalid_prev", 0 0;
v0x6166cf777df0_0 .var "w_done", 0 0;
v0x6166cf777eb0_0 .net "wlast", 0 0, v0x6166cf779ea0_0;  alias, 1 drivers
v0x6166cf777f70_0 .net "wready", 0 0, v0x6166cf77c770_0;  alias, 1 drivers
v0x6166cf778030_0 .net "wvalid", 0 0, v0x6166cf77a040_0;  alias, 1 drivers
v0x6166cf7780f0_0 .var "wvalid_prev", 0 0;
E_0x6166cf71d8e0/0 .event negedge, v0x6166cf777a30_0;
E_0x6166cf71d8e0/1 .event posedge, v0x6166cf777970_0;
E_0x6166cf71d8e0 .event/or E_0x6166cf71d8e0/0, E_0x6166cf71d8e0/1;
S_0x6166cf778370 .scope module, "u_master" "axi4_master" 3 24, 5 1 0, S_0x6166cf6c1f20;
 .timescale 0 0;
    .port_info 0 /INPUT 1 "clk";
    .port_info 1 /INPUT 1 "rst_n";
    .port_info 2 /OUTPUT 4 "awid";
    .port_info 3 /OUTPUT 32 "awaddr";
    .port_info 4 /OUTPUT 8 "awlen";
    .port_info 5 /OUTPUT 1 "awvalid";
    .port_info 6 /INPUT 1 "awready";
    .port_info 7 /OUTPUT 32 "wdata";
    .port_info 8 /OUTPUT 1 "wlast";
    .port_info 9 /OUTPUT 1 "wvalid";
    .port_info 10 /INPUT 1 "wready";
    .port_info 11 /INPUT 4 "bid";
    .port_info 12 /INPUT 2 "bresp";
    .port_info 13 /INPUT 1 "bvalid";
    .port_info 14 /OUTPUT 1 "bready";
    .port_info 15 /OUTPUT 4 "arid";
    .port_info 16 /OUTPUT 32 "araddr";
    .port_info 17 /OUTPUT 8 "arlen";
    .port_info 18 /OUTPUT 1 "arvalid";
    .port_info 19 /INPUT 1 "arready";
    .port_info 20 /INPUT 4 "rid";
    .port_info 21 /INPUT 32 "rdata";
    .port_info 22 /INPUT 1 "rlast";
    .port_info 23 /INPUT 2 "rresp";
    .port_info 24 /INPUT 1 "rvalid";
    .port_info 25 /OUTPUT 1 "rready";
    .port_info 26 /INPUT 1 "start_write";
    .port_info 27 /INPUT 1 "start_read";
    .port_info 28 /INPUT 32 "addr_in";
    .port_info 29 /INPUT 32 "data_in";
    .port_info 30 /OUTPUT 32 "data_out";
    .port_info 31 /OUTPUT 1 "done";
P_0x6166cf6c2fd0 .param/l "ADDR_WIDTH" 0 5 3, +C4<00000000000000000000000000100000>;
P_0x6166cf6c3010 .param/l "DATA_WIDTH" 0 5 2, +C4<00000000000000000000000000100000>;
P_0x6166cf6c3050 .param/l "ID_WIDTH" 0 5 4, +C4<00000000000000000000000000000100>;
enum0x6166cf6e7db0 .enum4 (3)
   "IDLE" 3'b000,
   "WR_ADDR" 3'b001,
   "WR_DATA" 3'b010,
   "WR_RESP" 3'b011,
   "RD_ADDR" 3'b100,
   "RD_DATA" 3'b101
 ;
v0x6166cf778680_0 .net "addr_in", 31 0, v0x6166cf77d2b0_0;  1 drivers
v0x6166cf778780_0 .var "araddr", 31 0;
v0x6166cf778860_0 .var "arid", 3 0;
v0x6166cf778950_0 .var "arlen", 7 0;
v0x6166cf778a30_0 .net "arready", 0 0, v0x6166cf77b0d0_0;  alias, 1 drivers
v0x6166cf778b20_0 .var "arvalid", 0 0;
v0x6166cf778bf0_0 .var "awaddr", 31 0;
v0x6166cf778c90_0 .var "awid", 3 0;
v0x6166cf778d70_0 .var "awlen", 7 0;
v0x6166cf778e50_0 .net "awready", 0 0, v0x6166cf77b4e0_0;  alias, 1 drivers
v0x6166cf778f20_0 .var "awvalid", 0 0;
v0x6166cf778ff0_0 .net "bid", 3 0, v0x6166cf77b670_0;  alias, 1 drivers
v0x6166cf779090_0 .var "bready", 0 0;
v0x6166cf779160_0 .net "bresp", 1 0, v0x6166cf77b800_0;  alias, 1 drivers
v0x6166cf779220_0 .net "bvalid", 0 0, v0x6166cf77b940_0;  alias, 1 drivers
v0x6166cf7792f0_0 .net "clk", 0 0, v0x6166cf77df90_0;  alias, 1 drivers
v0x6166cf7793c0_0 .net "data_in", 31 0, v0x6166cf77e030_0;  1 drivers
v0x6166cf779460_0 .var "data_out", 31 0;
v0x6166cf779540_0 .var "done", 0 0;
v0x6166cf779600_0 .net "rdata", 31 0, v0x6166cf77be80_0;  alias, 1 drivers
v0x6166cf7796e0_0 .net "rid", 3 0, v0x6166cf77bf40_0;  alias, 1 drivers
v0x6166cf7797c0_0 .net "rlast", 0 0, v0x6166cf77bfe0_0;  alias, 1 drivers
v0x6166cf779890_0 .var "rready", 0 0;
v0x6166cf779960_0 .net "rresp", 1 0, v0x6166cf77c1c0_0;  alias, 1 drivers
v0x6166cf779a00_0 .net "rst_n", 0 0, v0x6166cf77e660_0;  alias, 1 drivers
v0x6166cf779ad0_0 .net "rvalid", 0 0, v0x6166cf77c350_0;  alias, 1 drivers
v0x6166cf779ba0_0 .net "start_read", 0 0, v0x6166cf77e7a0_0;  1 drivers
v0x6166cf779c40_0 .net "start_write", 0 0, v0x6166cf77e840_0;  1 drivers
v0x6166cf779ce0_0 .var "state", 2 0;
v0x6166cf779dc0_0 .var "wdata", 31 0;
v0x6166cf779ea0_0 .var "wlast", 0 0;
v0x6166cf779f70_0 .net "wready", 0 0, v0x6166cf77c770_0;  alias, 1 drivers
v0x6166cf77a040_0 .var "wvalid", 0 0;
S_0x6166cf77a6c0 .scope module, "u_slave" "axi4_slave" 3 40, 6 1 0, S_0x6166cf6c1f20;
 .timescale 0 0;
    .port_info 0 /INPUT 1 "clk";
    .port_info 1 /INPUT 1 "rst_n";
    .port_info 2 /INPUT 4 "awid";
    .port_info 3 /INPUT 32 "awaddr";
    .port_info 4 /INPUT 8 "awlen";
    .port_info 5 /INPUT 1 "awvalid";
    .port_info 6 /OUTPUT 1 "awready";
    .port_info 7 /INPUT 32 "wdata";
    .port_info 8 /INPUT 1 "wlast";
    .port_info 9 /INPUT 1 "wvalid";
    .port_info 10 /OUTPUT 1 "wready";
    .port_info 11 /OUTPUT 4 "bid";
    .port_info 12 /OUTPUT 2 "bresp";
    .port_info 13 /OUTPUT 1 "bvalid";
    .port_info 14 /INPUT 1 "bready";
    .port_info 15 /INPUT 4 "arid";
    .port_info 16 /INPUT 32 "araddr";
    .port_info 17 /INPUT 8 "arlen";
    .port_info 18 /INPUT 1 "arvalid";
    .port_info 19 /OUTPUT 1 "arready";
    .port_info 20 /OUTPUT 4 "rid";
    .port_info 21 /OUTPUT 32 "rdata";
    .port_info 22 /OUTPUT 1 "rlast";
    .port_info 23 /OUTPUT 2 "rresp";
    .port_info 24 /OUTPUT 1 "rvalid";
    .port_info 25 /INPUT 1 "rready";
P_0x6166cf77a850 .param/l "ADDR_WIDTH" 0 6 3, +C4<00000000000000000000000000100000>;
P_0x6166cf77a890 .param/l "DATA_WIDTH" 0 6 2, +C4<00000000000000000000000000100000>;
P_0x6166cf77a8d0 .param/l "ID_WIDTH" 0 6 4, +C4<00000000000000000000000000000100>;
v0x6166cf77adf0_0 .net "araddr", 31 0, v0x6166cf778780_0;  alias, 1 drivers
v0x6166cf77af00_0 .net "arid", 3 0, v0x6166cf778860_0;  alias, 1 drivers
v0x6166cf77afd0_0 .net "arlen", 7 0, v0x6166cf778950_0;  alias, 1 drivers
v0x6166cf77b0d0_0 .var "arready", 0 0;
v0x6166cf77b1c0_0 .net "arvalid", 0 0, v0x6166cf778b20_0;  alias, 1 drivers
v0x6166cf77b300_0 .net "awaddr", 31 0, v0x6166cf778bf0_0;  alias, 1 drivers
v0x6166cf77b3a0_0 .net "awid", 3 0, v0x6166cf778c90_0;  alias, 1 drivers
v0x6166cf77b440_0 .net "awlen", 7 0, v0x6166cf778d70_0;  alias, 1 drivers
v0x6166cf77b4e0_0 .var "awready", 0 0;
v0x6166cf77b580_0 .net "awvalid", 0 0, v0x6166cf778f20_0;  alias, 1 drivers
v0x6166cf77b670_0 .var "bid", 3 0;
v0x6166cf77b710_0 .net "bready", 0 0, v0x6166cf779090_0;  alias, 1 drivers
v0x6166cf77b800_0 .var "bresp", 1 0;
v0x6166cf77b8a0_0 .var "burst_cnt", 7 0;
v0x6166cf77b940_0 .var "bvalid", 0 0;
v0x6166cf77ba30_0 .net "clk", 0 0, v0x6166cf77df90_0;  alias, 1 drivers
v0x6166cf77bb20 .array "mem", 255 0, 31 0;
v0x6166cf77bbe0_0 .var "rd_addr", 31 0;
v0x6166cf77bcc0_0 .var "rd_id", 3 0;
v0x6166cf77bda0_0 .var "rd_len", 7 0;
v0x6166cf77be80_0 .var "rdata", 31 0;
v0x6166cf77bf40_0 .var "rid", 3 0;
v0x6166cf77bfe0_0 .var "rlast", 0 0;
v0x6166cf77c0d0_0 .net "rready", 0 0, v0x6166cf779890_0;  alias, 1 drivers
v0x6166cf77c1c0_0 .var "rresp", 1 0;
v0x6166cf77c260_0 .net "rst_n", 0 0, v0x6166cf77e660_0;  alias, 1 drivers
v0x6166cf77c350_0 .var "rvalid", 0 0;
v0x6166cf77c440_0 .net "wdata", 31 0, v0x6166cf779dc0_0;  alias, 1 drivers
v0x6166cf77c4e0_0 .net "wlast", 0 0, v0x6166cf779ea0_0;  alias, 1 drivers
v0x6166cf77c5d0_0 .var "wr_addr_lat", 31 0;
v0x6166cf77c690_0 .var "wr_id_lat", 3 0;
v0x6166cf77c770_0 .var "wready", 0 0;
v0x6166cf77c860_0 .net "wvalid", 0 0, v0x6166cf77a040_0;  alias, 1 drivers
S_0x6166cf77cea0 .scope task, "write_txn" "write_txn" 3 60, 3 60 0, S_0x6166cf6c1f20;
 .timescale -9 -12;
v0x6166cf77d0d0_0 .var "addr", 31 0;
v0x6166cf77d1d0_0 .var "data", 31 0;
TD_tb_axi4.write_txn ;
    %wait E_0x6166cf71dda0;
    %load/vec4 v0x6166cf77d0d0_0;
    %store/vec4 v0x6166cf77d2b0_0, 0, 32;
    %load/vec4 v0x6166cf77d1d0_0;
    %store/vec4 v0x6166cf77e030_0, 0, 32;
    %pushi/vec4 1, 0, 1;
    %store/vec4 v0x6166cf77e840_0, 0, 1;
    %wait E_0x6166cf71dda0;
    %pushi/vec4 0, 0, 1;
    %store/vec4 v0x6166cf77e840_0, 0, 1;
T_1.2 ;
    %load/vec4 v0x6166cf77e190_0;
    %cmpi/ne 1, 0, 1;
    %jmp/0xz T_1.3, 6;
    %wait E_0x6166cf71db50;
    %jmp T_1.2;
T_1.3 ;
    %wait E_0x6166cf71dda0;
    %vpi_call/w 3 66 "$display", "[WRITE] addr=0x%08h data=0x%08h -- OK", v0x6166cf77d0d0_0, v0x6166cf77d1d0_0 {0 0 0};
    %end;
    .scope S_0x6166cf778370;
T_2 ;
    %wait E_0x6166cf71d8e0;
    %load/vec4 v0x6166cf779a00_0;
    %nor/r;
    %flag_set/vec4 8;
    %jmp/0xz  T_2.0, 8;
    %pushi/vec4 0, 0, 3;
    %assign/vec4 v0x6166cf779ce0_0, 0;
    %pushi/vec4 0, 0, 1;
    %assign/vec4 v0x6166cf778f20_0, 0;
    %pushi/vec4 0, 0, 1;
    %assign/vec4 v0x6166cf77a040_0, 0;
    %pushi/vec4 0, 0, 1;
    %assign/vec4 v0x6166cf779090_0, 0;
    %pushi/vec4 0, 0, 1;
    %assign/vec4 v0x6166cf778b20_0, 0;
    %pushi/vec4 0, 0, 1;
    %assign/vec4 v0x6166cf779890_0, 0;
    %pushi/vec4 0, 0, 1;
    %assign/vec4 v0x6166cf779540_0, 0;
    %pushi/vec4 0, 0, 4;
    %assign/vec4 v0x6166cf778c90_0, 0;
    %pushi/vec4 0, 0, 4;
    %assign/vec4 v0x6166cf778860_0, 0;
    %pushi/vec4 0, 0, 8;
    %assign/vec4 v0x6166cf778d70_0, 0;
    %pushi/vec4 0, 0, 8;
    %assign/vec4 v0x6166cf778950_0, 0;
    %pushi/vec4 0, 0, 1;
    %assign/vec4 v0x6166cf779ea0_0, 0;
    %pushi/vec4 0, 0, 32;
    %assign/vec4 v0x6166cf779dc0_0, 0;
    %jmp T_2.1;
T_2.0 ;
    %pushi/vec4 0, 0, 1;
    %assign/vec4 v0x6166cf779540_0, 0;
    %load/vec4 v0x6166cf779ce0_0;
    %dup/vec4;
    %pushi/vec4 0, 0, 3;
    %cmp/u;
    %jmp/1 T_2.2, 6;
    %dup/vec4;
    %pushi/vec4 1, 0, 3;
    %cmp/u;
    %jmp/1 T_2.3, 6;
    %dup/vec4;
    %pushi/vec4 2, 0, 3;
    %cmp/u;
    %jmp/1 T_2.4, 6;
    %dup/vec4;
    %pushi/vec4 3, 0, 3;
    %cmp/u;
    %jmp/1 T_2.5, 6;
    %dup/vec4;
    %pushi/vec4 4, 0, 3;
    %cmp/u;
    %jmp/1 T_2.6, 6;
    %dup/vec4;
    %pushi/vec4 5, 0, 3;
    %cmp/u;
    %jmp/1 T_2.7, 6;
    %jmp T_2.8;
T_2.2 ;
    %load/vec4 v0x6166cf779c40_0;
    %flag_set/vec4 8;
    %jmp/0xz  T_2.9, 8;
    %load/vec4 v0x6166cf778680_0;
    %assign/vec4 v0x6166cf778bf0_0, 0;
    %pushi/vec4 1, 0, 4;
    %assign/vec4 v0x6166cf778c90_0, 0;
    %pushi/vec4 0, 0, 8;
    %assign/vec4 v0x6166cf778d70_0, 0;
    %pushi/vec4 1, 0, 1;
    %assign/vec4 v0x6166cf778f20_0, 0;
    %pushi/vec4 1, 0, 3;
    %assign/vec4 v0x6166cf779ce0_0, 0;
    %jmp T_2.10;
T_2.9 ;
    %load/vec4 v0x6166cf779ba0_0;
    %flag_set/vec4 8;
    %jmp/0xz  T_2.11, 8;
    %load/vec4 v0x6166cf778680_0;
    %assign/vec4 v0x6166cf778780_0, 0;
    %pushi/vec4 2, 0, 4;
    %assign/vec4 v0x6166cf778860_0, 0;
    %pushi/vec4 0, 0, 8;
    %assign/vec4 v0x6166cf778950_0, 0;
    %pushi/vec4 1, 0, 1;
    %assign/vec4 v0x6166cf778b20_0, 0;
    %pushi/vec4 4, 0, 3;
    %assign/vec4 v0x6166cf779ce0_0, 0;
T_2.11 ;
T_2.10 ;
    %jmp T_2.8;
T_2.3 ;
    %load/vec4 v0x6166cf778e50_0;
    %flag_set/vec4 8;
    %jmp/0xz  T_2.13, 8;
    %pushi/vec4 0, 0, 1;
    %assign/vec4 v0x6166cf778f20_0, 0;
    %load/vec4 v0x6166cf7793c0_0;
    %assign/vec4 v0x6166cf779dc0_0, 0;
    %pushi/vec4 1, 0, 1;
    %assign/vec4 v0x6166cf779ea0_0, 0;
    %pushi/vec4 1, 0, 1;
    %assign/vec4 v0x6166cf77a040_0, 0;
    %pushi/vec4 2, 0, 3;
    %assign/vec4 v0x6166cf779ce0_0, 0;
T_2.13 ;
    %jmp T_2.8;
T_2.4 ;
    %load/vec4 v0x6166cf779f70_0;
    %flag_set/vec4 8;
    %jmp/0xz  T_2.15, 8;
    %pushi/vec4 0, 0, 1;
    %assign/vec4 v0x6166cf77a040_0, 0;
    %pushi/vec4 0, 0, 1;
    %assign/vec4 v0x6166cf779ea0_0, 0;
    %pushi/vec4 1, 0, 1;
    %assign/vec4 v0x6166cf779090_0, 0;
    %pushi/vec4 3, 0, 3;
    %assign/vec4 v0x6166cf779ce0_0, 0;
T_2.15 ;
    %jmp T_2.8;
T_2.5 ;
    %load/vec4 v0x6166cf779220_0;
    %flag_set/vec4 8;
    %jmp/0xz  T_2.17, 8;
    %pushi/vec4 0, 0, 1;
    %assign/vec4 v0x6166cf779090_0, 0;
    %pushi/vec4 1, 0, 1;
    %assign/vec4 v0x6166cf779540_0, 0;
    %pushi/vec4 0, 0, 3;
    %assign/vec4 v0x6166cf779ce0_0, 0;
T_2.17 ;
    %jmp T_2.8;
T_2.6 ;
    %load/vec4 v0x6166cf778a30_0;
    %flag_set/vec4 8;
    %jmp/0xz  T_2.19, 8;
    %pushi/vec4 0, 0, 1;
    %assign/vec4 v0x6166cf778b20_0, 0;
    %pushi/vec4 1, 0, 1;
    %assign/vec4 v0x6166cf779890_0, 0;
    %pushi/vec4 5, 0, 3;
    %assign/vec4 v0x6166cf779ce0_0, 0;
T_2.19 ;
    %jmp T_2.8;
T_2.7 ;
    %load/vec4 v0x6166cf779ad0_0;
    %flag_set/vec4 8;
    %jmp/0xz  T_2.21, 8;
    %load/vec4 v0x6166cf779600_0;
    %assign/vec4 v0x6166cf779460_0, 0;
    %pushi/vec4 0, 0, 1;
    %assign/vec4 v0x6166cf779890_0, 0;
    %pushi/vec4 1, 0, 1;
    %assign/vec4 v0x6166cf779540_0, 0;
    %pushi/vec4 0, 0, 3;
    %assign/vec4 v0x6166cf779ce0_0, 0;
T_2.21 ;
    %jmp T_2.8;
T_2.8 ;
    %pop/vec4 1;
T_2.1 ;
    %jmp T_2;
    .thread T_2;
    .scope S_0x6166cf77a6c0;
T_3 ;
    %wait E_0x6166cf71d8e0;
    %load/vec4 v0x6166cf77c260_0;
    %nor/r;
    %flag_set/vec4 8;
    %jmp/0xz  T_3.0, 8;
    %pushi/vec4 1, 0, 1;
    %assign/vec4 v0x6166cf77b4e0_0, 0;
    %pushi/vec4 1, 0, 1;
    %assign/vec4 v0x6166cf77c770_0, 0;
    %pushi/vec4 0, 0, 1;
    %assign/vec4 v0x6166cf77b940_0, 0;
    %pushi/vec4 0, 0, 4;
    %assign/vec4 v0x6166cf77b670_0, 0;
    %pushi/vec4 0, 0, 2;
    %assign/vec4 v0x6166cf77b800_0, 0;
    %pushi/vec4 0, 0, 32;
    %assign/vec4 v0x6166cf77c5d0_0, 0;
    %pushi/vec4 0, 0, 4;
    %assign/vec4 v0x6166cf77c690_0, 0;
    %jmp T_3.1;
T_3.0 ;
    %load/vec4 v0x6166cf77b580_0;
    %flag_set/vec4 9;
    %flag_get/vec4 9;
    %jmp/0 T_3.4, 9;
    %load/vec4 v0x6166cf77b4e0_0;
    %and;
T_3.4;
    %flag_set/vec4 8;
    %jmp/0xz  T_3.2, 8;
    %load/vec4 v0x6166cf77b300_0;
    %assign/vec4 v0x6166cf77c5d0_0, 0;
    %load/vec4 v0x6166cf77b3a0_0;
    %assign/vec4 v0x6166cf77c690_0, 0;
    %pushi/vec4 0, 0, 1;
    %assign/vec4 v0x6166cf77b4e0_0, 0;
T_3.2 ;
    %load/vec4 v0x6166cf77c860_0;
    %flag_set/vec4 9;
    %flag_get/vec4 9;
    %jmp/0 T_3.7, 9;
    %load/vec4 v0x6166cf77c770_0;
    %and;
T_3.7;
    %flag_set/vec4 8;
    %jmp/0xz  T_3.5, 8;
    %load/vec4 v0x6166cf77c440_0;
    %load/vec4 v0x6166cf77c5d0_0;
    %parti/s 8, 0, 2;
    %pad/u 10;
    %ix/vec4 3;
    %ix/load 4, 0, 0; Constant delay
    %assign/vec4/a/d v0x6166cf77bb20, 0, 4;
    %load/vec4 v0x6166cf77c4e0_0;
    %flag_set/vec4 8;
    %jmp/0xz  T_3.8, 8;
    %pushi/vec4 0, 0, 1;
    %assign/vec4 v0x6166cf77c770_0, 0;
    %pushi/vec4 1, 0, 1;
    %assign/vec4 v0x6166cf77b940_0, 0;
    %load/vec4 v0x6166cf77c690_0;
    %assign/vec4 v0x6166cf77b670_0, 0;
    %pushi/vec4 0, 0, 2;
    %assign/vec4 v0x6166cf77b800_0, 0;
T_3.8 ;
T_3.5 ;
    %load/vec4 v0x6166cf77b940_0;
    %flag_set/vec4 9;
    %flag_get/vec4 9;
    %jmp/0 T_3.12, 9;
    %load/vec4 v0x6166cf77b710_0;
    %and;
T_3.12;
    %flag_set/vec4 8;
    %jmp/0xz  T_3.10, 8;
    %pushi/vec4 0, 0, 1;
    %assign/vec4 v0x6166cf77b940_0, 0;
    %pushi/vec4 1, 0, 1;
    %assign/vec4 v0x6166cf77b4e0_0, 0;
    %pushi/vec4 1, 0, 1;
    %assign/vec4 v0x6166cf77c770_0, 0;
T_3.10 ;
T_3.1 ;
    %jmp T_3;
    .thread T_3;
    .scope S_0x6166cf77a6c0;
T_4 ;
    %wait E_0x6166cf71d8e0;
    %load/vec4 v0x6166cf77c260_0;
    %nor/r;
    %flag_set/vec4 8;
    %jmp/0xz  T_4.0, 8;
    %pushi/vec4 1, 0, 1;
    %assign/vec4 v0x6166cf77b0d0_0, 0;
    %pushi/vec4 0, 0, 1;
    %assign/vec4 v0x6166cf77c350_0, 0;
    %pushi/vec4 0, 0, 4;
    %assign/vec4 v0x6166cf77bf40_0, 0;
    %pushi/vec4 0, 0, 32;
    %assign/vec4 v0x6166cf77be80_0, 0;
    %pushi/vec4 0, 0, 1;
    %assign/vec4 v0x6166cf77bfe0_0, 0;
    %pushi/vec4 0, 0, 2;
    %assign/vec4 v0x6166cf77c1c0_0, 0;
    %pushi/vec4 0, 0, 8;
    %assign/vec4 v0x6166cf77b8a0_0, 0;
    %pushi/vec4 0, 0, 32;
    %assign/vec4 v0x6166cf77bbe0_0, 0;
    %pushi/vec4 0, 0, 4;
    %assign/vec4 v0x6166cf77bcc0_0, 0;
    %pushi/vec4 0, 0, 8;
    %assign/vec4 v0x6166cf77bda0_0, 0;
    %jmp T_4.1;
T_4.0 ;
    %load/vec4 v0x6166cf77b1c0_0;
    %flag_set/vec4 9;
    %flag_get/vec4 9;
    %jmp/0 T_4.4, 9;
    %load/vec4 v0x6166cf77b0d0_0;
    %and;
T_4.4;
    %flag_set/vec4 8;
    %jmp/0xz  T_4.2, 8;
    %pushi/vec4 0, 0, 1;
    %assign/vec4 v0x6166cf77b0d0_0, 0;
    %load/vec4 v0x6166cf77adf0_0;
    %assign/vec4 v0x6166cf77bbe0_0, 0;
    %load/vec4 v0x6166cf77af00_0;
    %assign/vec4 v0x6166cf77bcc0_0, 0;
    %load/vec4 v0x6166cf77afd0_0;
    %assign/vec4 v0x6166cf77bda0_0, 0;
    %pushi/vec4 0, 0, 8;
    %assign/vec4 v0x6166cf77b8a0_0, 0;
    %pushi/vec4 1, 0, 1;
    %assign/vec4 v0x6166cf77c350_0, 0;
    %load/vec4 v0x6166cf77adf0_0;
    %parti/s 8, 0, 2;
    %pad/u 10;
    %ix/vec4 4;
    %load/vec4a v0x6166cf77bb20, 4;
    %assign/vec4 v0x6166cf77be80_0, 0;
    %load/vec4 v0x6166cf77af00_0;
    %assign/vec4 v0x6166cf77bf40_0, 0;
    %pushi/vec4 0, 0, 2;
    %assign/vec4 v0x6166cf77c1c0_0, 0;
    %load/vec4 v0x6166cf77afd0_0;
    %pad/u 32;
    %pushi/vec4 0, 0, 32;
    %cmp/e;
    %flag_get/vec4 4;
    %assign/vec4 v0x6166cf77bfe0_0, 0;
T_4.2 ;
    %load/vec4 v0x6166cf77c350_0;
    %flag_set/vec4 9;
    %flag_get/vec4 9;
    %jmp/0 T_4.7, 9;
    %load/vec4 v0x6166cf77c0d0_0;
    %and;
T_4.7;
    %flag_set/vec4 8;
    %jmp/0xz  T_4.5, 8;
    %load/vec4 v0x6166cf77b8a0_0;
    %addi 1, 0, 8;
    %assign/vec4 v0x6166cf77b8a0_0, 0;
    %load/vec4 v0x6166cf77b8a0_0;
    %load/vec4 v0x6166cf77bda0_0;
    %cmp/e;
    %jmp/0xz  T_4.8, 4;
    %pushi/vec4 0, 0, 1;
    %assign/vec4 v0x6166cf77c350_0, 0;
    %pushi/vec4 0, 0, 1;
    %assign/vec4 v0x6166cf77bfe0_0, 0;
    %pushi/vec4 1, 0, 1;
    %assign/vec4 v0x6166cf77b0d0_0, 0;
    %jmp T_4.9;
T_4.8 ;
    %load/vec4 v0x6166cf77bbe0_0;
    %parti/s 8, 0, 2;
    %pad/u 32;
    %load/vec4 v0x6166cf77b8a0_0;
    %pad/u 32;
    %add;
    %addi 1, 0, 32;
    %ix/vec4 4;
    %load/vec4a v0x6166cf77bb20, 4;
    %assign/vec4 v0x6166cf77be80_0, 0;
    %load/vec4 v0x6166cf77b8a0_0;
    %pad/u 32;
    %addi 1, 0, 32;
    %load/vec4 v0x6166cf77bda0_0;
    %pad/u 32;
    %cmp/e;
    %flag_get/vec4 4;
    %assign/vec4 v0x6166cf77bfe0_0, 0;
T_4.9 ;
T_4.5 ;
T_4.1 ;
    %jmp T_4;
    .thread T_4;
    .scope S_0x6166cf776ff0;
T_5 ;
    %wait E_0x6166cf71dda0;
    %load/vec4 v0x6166cf745d60_0;
    %assign/vec4 v0x6166cf777650_0, 0;
    %jmp T_5;
    .thread T_5;
    .scope S_0x6166cf776ff0;
T_6 ;
    %wait E_0x6166cf71dda0;
    %load/vec4 v0x6166cf778030_0;
    %assign/vec4 v0x6166cf7780f0_0, 0;
    %jmp T_6;
    .thread T_6;
    .scope S_0x6166cf776ff0;
T_7 ;
    %wait E_0x6166cf71dda0;
    %load/vec4 v0x6166cf7527b0_0;
    %assign/vec4 v0x6166cf752ac0_0, 0;
    %jmp T_7;
    .thread T_7;
    .scope S_0x6166cf776ff0;
T_8 ;
    %wait E_0x6166cf71dda0;
    %load/vec4 v0x6166cf777c70_0;
    %assign/vec4 v0x6166cf777d30_0, 0;
    %jmp T_8;
    .thread T_8;
    .scope S_0x6166cf776ff0;
T_9 ;
    %wait E_0x6166cf71d8e0;
    %load/vec4 v0x6166cf777a30_0;
    %nor/r;
    %flag_set/vec4 8;
    %jmp/0xz  T_9.0, 8;
    %pushi/vec4 0, 0, 1;
    %assign/vec4 v0x6166cf752df0_0, 0;
    %pushi/vec4 0, 0, 1;
    %assign/vec4 v0x6166cf777df0_0, 0;
    %pushi/vec4 0, 0, 32;
    %assign/vec4 v0x6166cf777710_0, 0;
    %jmp T_9.1;
T_9.0 ;
    %load/vec4 v0x6166cf745d60_0;
    %flag_set/vec4 9;
    %flag_get/vec4 9;
    %jmp/0 T_9.4, 9;
    %load/vec4 v0x6166cf745950_0;
    %and;
T_9.4;
    %flag_set/vec4 8;
    %jmp/0xz  T_9.2, 8;
    %pushi/vec4 1, 0, 1;
    %assign/vec4 v0x6166cf752df0_0, 0;
T_9.2 ;
    %load/vec4 v0x6166cf778030_0;
    %flag_set/vec4 10;
    %flag_get/vec4 10;
    %jmp/0 T_9.8, 10;
    %load/vec4 v0x6166cf777f70_0;
    %and;
T_9.8;
    %flag_set/vec4 9;
    %flag_get/vec4 9;
    %jmp/0 T_9.7, 9;
    %load/vec4 v0x6166cf777eb0_0;
    %and;
T_9.7;
    %flag_set/vec4 8;
    %jmp/0xz  T_9.5, 8;
    %pushi/vec4 1, 0, 1;
    %assign/vec4 v0x6166cf777df0_0, 0;
T_9.5 ;
    %load/vec4 v0x6166cf7778b0_0;
    %flag_set/vec4 9;
    %flag_get/vec4 9;
    %jmp/0 T_9.11, 9;
    %load/vec4 v0x6166cf7777f0_0;
    %and;
T_9.11;
    %flag_set/vec4 8;
    %jmp/0xz  T_9.9, 8;
    %pushi/vec4 0, 0, 1;
    %assign/vec4 v0x6166cf752df0_0, 0;
    %pushi/vec4 0, 0, 1;
    %assign/vec4 v0x6166cf777df0_0, 0;
T_9.9 ;
    %load/vec4 v0x6166cf777650_0;
    %flag_set/vec4 10;
    %flag_get/vec4 10;
    %jmp/0 T_9.15, 10;
    %load/vec4 v0x6166cf745950_0;
    %nor/r;
    %and;
T_9.15;
    %flag_set/vec4 9;
    %flag_get/vec4 9;
    %jmp/0 T_9.14, 9;
    %load/vec4 v0x6166cf745d60_0;
    %nor/r;
    %and;
T_9.14;
    %flag_set/vec4 8;
    %jmp/0xz  T_9.12, 8;
    %vpi_call/w 4 28 "$fatal", 32'sb00000000000000000000000000000001, "[FAIL] AWVALID dropped before AWREADY at %0t", $time {0 0 0};
T_9.12 ;
    %load/vec4 v0x6166cf7780f0_0;
    %flag_set/vec4 10;
    %flag_get/vec4 10;
    %jmp/0 T_9.19, 10;
    %load/vec4 v0x6166cf777f70_0;
    %nor/r;
    %and;
T_9.19;
    %flag_set/vec4 9;
    %flag_get/vec4 9;
    %jmp/0 T_9.18, 9;
    %load/vec4 v0x6166cf778030_0;
    %nor/r;
    %and;
T_9.18;
    %flag_set/vec4 8;
    %jmp/0xz  T_9.16, 8;
    %vpi_call/w 4 30 "$fatal", 32'sb00000000000000000000000000000001, "[FAIL] WVALID dropped before WREADY at %0t", $time {0 0 0};
T_9.16 ;
    %load/vec4 v0x6166cf7778b0_0;
    %flag_set/vec4 9;
    %flag_get/vec4 9;
    %jmp/0 T_9.22, 9;
    %load/vec4 v0x6166cf777df0_0;
    %nor/r;
    %and;
T_9.22;
    %flag_set/vec4 8;
    %jmp/0xz  T_9.20, 8;
    %vpi_call/w 4 32 "$fatal", 32'sb00000000000000000000000000000001, "[FAIL] BVALID before WLAST at %0t", $time {0 0 0};
T_9.20 ;
    %load/vec4 v0x6166cf7778b0_0;
    %flag_set/vec4 9;
    %flag_get/vec4 9;
    %jmp/0 T_9.25, 9;
    %load/vec4 v0x6166cf7777f0_0;
    %nor/r;
    %and;
T_9.25;
    %flag_set/vec4 8;
    %jmp/0xz  T_9.23, 8;
    %load/vec4 v0x6166cf777710_0;
    %addi 1, 0, 32;
    %assign/vec4 v0x6166cf777710_0, 0;
    %jmp T_9.24;
T_9.23 ;
    %pushi/vec4 0, 0, 32;
    %assign/vec4 v0x6166cf777710_0, 0;
T_9.24 ;
    %load/vec4 v0x6166cf777710_0;
    %cmpi/s 15, 0, 32;
    %flag_or 5, 4; GT is !LE
    %flag_inv 5;
    %jmp/0xz  T_9.26, 5;
    %vpi_call/w 4 36 "$fatal", 32'sb00000000000000000000000000000001, "[FAIL] BREADY stalled >15 cycles at %0t", $time {0 0 0};
T_9.26 ;
    %load/vec4 v0x6166cf752ac0_0;
    %flag_set/vec4 10;
    %flag_get/vec4 10;
    %jmp/0 T_9.31, 10;
    %load/vec4 v0x6166cf7524c0_0;
    %nor/r;
    %and;
T_9.31;
    %flag_set/vec4 9;
    %flag_get/vec4 9;
    %jmp/0 T_9.30, 9;
    %load/vec4 v0x6166cf7527b0_0;
    %nor/r;
    %and;
T_9.30;
    %flag_set/vec4 8;
    %jmp/0xz  T_9.28, 8;
    %vpi_call/w 4 38 "$fatal", 32'sb00000000000000000000000000000001, "[FAIL] ARVALID dropped before ARREADY at %0t", $time {0 0 0};
T_9.28 ;
    %load/vec4 v0x6166cf777d30_0;
    %flag_set/vec4 10;
    %flag_get/vec4 10;
    %jmp/0 T_9.35, 10;
    %load/vec4 v0x6166cf777bb0_0;
    %nor/r;
    %and;
T_9.35;
    %flag_set/vec4 9;
    %flag_get/vec4 9;
    %jmp/0 T_9.34, 9;
    %load/vec4 v0x6166cf777c70_0;
    %nor/r;
    %and;
T_9.34;
    %flag_set/vec4 8;
    %jmp/0xz  T_9.32, 8;
    %vpi_call/w 4 40 "$fatal", 32'sb00000000000000000000000000000001, "[FAIL] RVALID dropped before RREADY at %0t", $time {0 0 0};
T_9.32 ;
T_9.1 ;
    %jmp T_9;
    .thread T_9;
    .scope S_0x6166cf6c1f20;
T_10 ;
    %delay 5000, 0;
    %load/vec4 v0x6166cf77df90_0;
    %inv;
    %store/vec4 v0x6166cf77df90_0, 0, 1;
    %jmp T_10;
    .thread T_10;
    .scope S_0x6166cf6c1f20;
T_11 ;
    %vpi_call/w 3 55 "$dumpfile", "sim/axi4.vcd" {0 0 0};
    %vpi_call/w 3 56 "$dumpvars", 32'sb00000000000000000000000000000000, S_0x6166cf6c1f20 {0 0 0};
    %end;
    .thread T_11;
    .scope S_0x6166cf6c1f20;
T_12 ;
    %pushi/vec4 0, 0, 1;
    %store/vec4 v0x6166cf77df90_0, 0, 1;
    %pushi/vec4 0, 0, 1;
    %store/vec4 v0x6166cf77e660_0, 0, 1;
    %pushi/vec4 0, 0, 1;
    %store/vec4 v0x6166cf77e840_0, 0, 1;
    %pushi/vec4 0, 0, 1;
    %store/vec4 v0x6166cf77e7a0_0, 0, 1;
    %pushi/vec4 0, 0, 32;
    %store/vec4 v0x6166cf77d2b0_0, 0, 32;
    %pushi/vec4 0, 0, 32;
    %store/vec4 v0x6166cf77e030_0, 0, 32;
    %pushi/vec4 4, 0, 32;
T_12.0 %dup/vec4;
    %cmpi/s 0, 0, 32;
    %jmp/1xz T_12.1, 5;
    %jmp/1 T_12.1, 4;
    %subi 1, 0, 32;
    %wait E_0x6166cf71dda0;
    %jmp T_12.0;
T_12.1 ;
    %pop/vec4 1;
    %pushi/vec4 1, 0, 1;
    %store/vec4 v0x6166cf77e660_0, 0, 1;
    %pushi/vec4 2, 0, 32;
T_12.2 %dup/vec4;
    %cmpi/s 0, 0, 32;
    %jmp/1xz T_12.3, 5;
    %jmp/1 T_12.3, 4;
    %subi 1, 0, 32;
    %wait E_0x6166cf71dda0;
    %jmp T_12.2;
T_12.3 ;
    %pop/vec4 1;
    %pushi/vec4 16, 0, 32;
    %store/vec4 v0x6166cf77d0d0_0, 0, 32;
    %pushi/vec4 3735928559, 0, 32;
    %store/vec4 v0x6166cf77d1d0_0, 0, 32;
    %fork TD_tb_axi4.write_txn, S_0x6166cf77cea0;
    %join;
    %pushi/vec4 16, 0, 32;
    %store/vec4 v0x6166cf74bb60_0, 0, 32;
    %fork TD_tb_axi4.read_txn, S_0x6166cf70a260;
    %join;
    %pushi/vec4 32, 0, 32;
    %store/vec4 v0x6166cf77d0d0_0, 0, 32;
    %pushi/vec4 3405691582, 0, 32;
    %store/vec4 v0x6166cf77d1d0_0, 0, 32;
    %fork TD_tb_axi4.write_txn, S_0x6166cf77cea0;
    %join;
    %pushi/vec4 48, 0, 32;
    %store/vec4 v0x6166cf77d0d0_0, 0, 32;
    %pushi/vec4 305419896, 0, 32;
    %store/vec4 v0x6166cf77d1d0_0, 0, 32;
    %fork TD_tb_axi4.write_txn, S_0x6166cf77cea0;
    %join;
    %pushi/vec4 32, 0, 32;
    %store/vec4 v0x6166cf74bb60_0, 0, 32;
    %fork TD_tb_axi4.read_txn, S_0x6166cf70a260;
    %join;
    %pushi/vec4 48, 0, 32;
    %store/vec4 v0x6166cf74bb60_0, 0, 32;
    %fork TD_tb_axi4.read_txn, S_0x6166cf70a260;
    %join;
    %pushi/vec4 16, 0, 32;
    %store/vec4 v0x6166cf74bb60_0, 0, 32;
    %fork TD_tb_axi4.read_txn, S_0x6166cf70a260;
    %join;
    %load/vec4 v0x6166cf77e0f0_0;
    %cmpi/e 3735928559, 0, 32;
    %jmp/0xz  T_12.4, 6;
    %vpi_call/w 3 98 "$display", "PASS: Readback matches written data" {0 0 0};
    %jmp T_12.5;
T_12.4 ;
    %vpi_call/w 3 100 "$display", "FAIL: Expected 0xDEADBEEF got 0x%08h", v0x6166cf77e0f0_0 {0 0 0};
T_12.5 ;
    %pushi/vec4 5, 0, 32;
T_12.6 %dup/vec4;
    %cmpi/s 0, 0, 32;
    %jmp/1xz T_12.7, 5;
    %jmp/1 T_12.7, 4;
    %subi 1, 0, 32;
    %wait E_0x6166cf71dda0;
    %jmp T_12.6;
T_12.7 ;
    %pop/vec4 1;
    %vpi_call/w 3 103 "$display", "\012All AXI4 transactions complete!" {0 0 0};
    %vpi_call/w 3 104 "$finish" {0 0 0};
    %end;
    .thread T_12;
# The file index is used to find the file name in the following table.
:file_names 7;
    "N/A";
    "<interactive>";
    "-";
    "tb/tb_axi4.sv";
    "tb/axi4_assertions.v";
    "rtl/axi4_master.sv";
    "rtl/axi4_slave.sv";
